T7E7C 537:485.086   SEGGER J-Link V7.50a Log File
T7E7C 537:485.152   DLL Compiled: Jul  8 2021 18:16:52
T7E7C 537:485.175   Logging started @ 2021-08-03 21:02
T7E7C 537:485.196 - 21.203ms
T7E7C 537:485.219 JLINK_ExecCommand("device = ATSAMD21E18A", ...). 
T7E7C 537:485.391   Device "ATSAMD21E18" selected.
T7E7C 537:485.663 - 0.435ms returns 0x00
T7E7C 537:485.691 JLINK_GetHWStatus(...)
T7E7C 537:485.796 - 0.144ms returns 0
T7E7C 537:485.852 JLINK_ClrRESET()
T7E7C 537:485.981 - 0.151ms
T7E7C 537:491.943 JLINK_SetRESET()
T7E7C 537:492.045 - 0.114ms
T7E7C 537:497.937 JLINK_ClrRESET()
T7E7C 537:498.091 - 0.168ms
T7E7C 537:502.954 JLINK_ClrTCK()
T7E7C 537:503.077 - 0.147ms returns 0
T7E7C 537:507.942 JLINK_SetRESET()
T7E7C 537:508.159 - 0.222ms
T7E7C 537:512.948 JLINK_Clock()
T7E7C 537:513.073 - 0.139ms returns 0
T7E7C 537:517.943 JLINK_TIF_Select(JLINKARM_TIF_SWD)
T7E7C 537:518.215 - 0.280ms returns 0x00
T7E7C 537:518.232 JLINK_SetSpeed(50)
T7E7C 537:518.286 - 0.062ms
T7E7C 537:518.301 JLINK_CORESIGHT_Configure()
T7E7C 537:526.572 - 8.279ms returns 0
T7E7C 537:526.588 JLINK_CORESIGHT_WriteAPDPReg(DP reg 0x02, 0x00000000)
T7E7C 537:527.601 - 1.019ms returns 0
T7E7C 537:527.612 JLINK_CORESIGHT_WriteAPDPReg(AP reg 0x00, 0x23000040)
T7E7C 537:528.640 - 1.035ms returns 0
T7E7C 537:528.654 JLINK_CORESIGHT_WriteAPDPReg(AP reg 0x01, 0x41002101)
T7E7C 537:529.659 - 1.008ms returns 0
T7E7C 537:529.667 JLINK_CORESIGHT_ReadAPDPReg(AP reg 0x03)
T7E7C 537:531.595   Value=0x00120200
T7E7C 537:531.603 - 1.938ms returns 0
T7E7C 537:531.610 JLINK_CORESIGHT_WriteAPDPReg(AP reg 0x01, 0x41002100)
T7E7C 537:532.613 - 1.006ms returns 0
T7E7C 537:532.620 JLINK_CORESIGHT_WriteAPDPReg(AP reg 0x03, 0x00000010)
T7E7C 537:533.638 - 1.022ms returns 0
T7E7C 537:533.648 JLINK_CORESIGHT_WriteAPDPReg(AP reg 0x01, 0x41002101)
T7E7C 537:534.669 - 1.031ms returns 0
T7E7C 537:534.689 JLINK_CORESIGHT_ReadAPDPReg(AP reg 0x03)
T7E7C 537:536.642   Value=0x01120200
T7E7C 537:536.655 - 1.968ms returns 0
T7E7C 537:736.005 JLINK_CORESIGHT_ReadAPDPReg(AP reg 0x03)
T7E7C 537:737.977   Value=0x00120300
T7E7C 537:737.996 - 1.993ms returns 0
T7E7C 537:751.104 JLINK_ExecCommand("Device = ATSAMD21E18A", ...). 
T7E7C 537:751.206   Device "ATSAMD21E18" selected.
T7E7C 537:751.513 - 0.402ms returns 0x00
T7E7C 537:751.523 JLINK_TIF_Select(JLINKARM_TIF_SWD)
T7E7C 537:751.529 - 0.008ms returns 0x00
T7E7C 537:751.535 JLINK_SetSpeed(4000)
T7E7C 537:751.587 - 0.056ms
T7E7C 537:751.595 JLINK_ResetPullsRESET(OFF)
T7E7C 537:751.601 - 0.007ms
T7E7C 537:751.607 JLINK_Connect()
T7E7C 537:751.710   InitTarget() start
T7E7C 537:751.719    J-Link Script File: Executing InitTarget()
T7E7C 537:751.725   InitTarget()
T7E7C 537:753.695   InitTarget() end
T7E7C 537:753.914   Found SW-DP with ID 0x0BC11477
T7E7C 537:754.652   DPIDR: 0x0BC11477
T7E7C 537:754.664   Scanning AP map to find all available APs
T7E7C 537:754.909   AP[1]: Stopped AP scan as end of AP map has been reached
T7E7C 537:754.918   AP[0]: AHB-AP (IDR: 0x04770031)
T7E7C 537:754.925   Iterating through AP map to find AHB-AP to use
T7E7C 537:755.235   AP[0]: Core found
T7E7C 537:755.247   AP[0]: AHB-AP ROM base: 0x41003000
T7E7C 537:755.408   CPUID register: 0x410CC601. Implementer code: 0x41 (ARM)
T7E7C 537:755.417   Found Cortex-M0 r0p1, Little endian.
T7E7C 537:856.173   -- Max. mem block: 0x0000CDF0
T7E7C 537:856.243   CPU_ReadMem(4 bytes @ 0xE000EDF0)
T7E7C 537:856.470   CPU_ReadMem(4 bytes @ 0xE0002000)
T7E7C 537:856.653   FPUnit: 4 code (BP) slots and 0 literal slots
T7E7C 537:856.669   CPU_ReadMem(4 bytes @ 0xE000EDFC)
T7E7C 537:856.894   CPU_ReadMem(4 bytes @ 0xE0001000)
T7E7C 537:857.089   CPU_WriteMem(4 bytes @ 0xE0001000)
T7E7C 537:857.292   CoreSight components:
T7E7C 537:857.306   ROMTbl[0] @ 41003000
T7E7C 537:857.315   CPU_ReadMem(64 bytes @ 0x41003000)
T7E7C 537:857.814   CPU_ReadMem(32 bytes @ 0xE00FFFE0)
T7E7C 537:858.132   ROMTbl[0][0]: E00FF000, CID: B105100D, PID: 000BB4C0 ROM Table
T7E7C 537:858.145   ROMTbl[1] @ E00FF000
T7E7C 537:858.154   CPU_ReadMem(64 bytes @ 0xE00FF000)
T7E7C 537:858.672   CPU_ReadMem(32 bytes @ 0xE000EFE0)
T7E7C 537:858.981   ROMTbl[1][0]: E000E000, CID: B105E00D, PID: 000BB008 SCS
T7E7C 537:858.990   CPU_ReadMem(32 bytes @ 0xE0001FE0)
T7E7C 537:859.304   ROMTbl[1][1]: E0001000, CID: B105E00D, PID: 000BB00A DWT
T7E7C 537:859.315   CPU_ReadMem(32 bytes @ 0xE0002FE0)
T7E7C 537:859.630   ROMTbl[1][2]: E0002000, CID: B105E00D, PID: 000BB00B FPB
T7E7C 537:859.639   CPU_ReadMem(32 bytes @ 0x41006FE0)
T7E7C 537:859.958   ROMTbl[0][1]: 41006000, CID: B105900D, PID: 001BB932 MTB-M0+
T7E7C 537:859.971 - 108.367ms returns 0x00
T7E7C 537:860.012 JLINK_Halt()
T7E7C 537:862.178 - 2.172ms returns 0x00
T7E7C 537:862.973 JLINK_JTAG_GetDeviceID(DeviceIndex = 0)
T7E7C 537:862.983 - 0.012ms returns 0
T7E7C 537:862.990 JLINK_ReadMemU32(0x41002018, 0x1 Items)
T7E7C 537:863.003   CPU_ReadMem(4 bytes @ 0x41002018)
T7E7C 537:863.192   Data:  0A 03 01 10
T7E7C 537:863.201 - 0.213ms returns 1 (0x1)
T6E44 537:872.034 JLINK_IsHalted()
T6E44 537:872.055 - 0.023ms returns TRUE
T6E44 537:872.063 JLINK_GetMOEs(...)
T6E44 537:872.075   CPU_ReadMem(4 bytes @ 0xE000ED30)
T6E44 537:872.280 - 0.226ms returns 0x01
T6E44 537:872.298 JLINK_ReadReg(R15 (PC))
T6E44 537:872.310 - 0.014ms returns 0xFFFFFFFE
T7E7C 537:875.899 JLINK_BeginDownload(Flags = 0x00000000)
T7E7C 537:875.924 - 0.028ms
T7E7C 537:875.932 JLINK_WriteMem(0x00000000, 0x35B4 Bytes, ...)
T7E7C 537:875.938   Data:  B0 24 00 20 55 2F 00 00 51 2F 00 00 51 2F 00 00 ...
T7E7C 537:876.128   completely In flash
T7E7C 537:876.154    -- Read from flash cache (13748 bytes @ 0x00000000)
T7E7C 537:876.164 - 0.235ms returns 0x35B4
T7E7C 537:876.273 JLINK_WriteMem(0x000035B4, 0xDC Bytes, ...)
T7E7C 537:876.281   Data:  01 02 00 00 41 02 00 00 4D 02 00 00 BF 01 00 00 ...
T7E7C 537:876.290   completely In flash
T7E7C 537:876.298    -- Read from flash cache (220 bytes @ 0x000035B4)
T7E7C 537:876.306 - 0.035ms returns 0xDC
T7E7C 537:880.426 JLINK_EndDownload()
T7E7C 537:880.545   CPU_ReadMem(4 bytes @ 0x41006004)
T7E7C 537:880.746   CPU_ReadMem(4 bytes @ 0xE000ED90)
T7E7C 537:880.947    -- --------------------------------------
T7E7C 537:880.959   Flash bank @ 0x00000000: Default: L2 verify disabled because algorithm performs L1 verify
T7E7C 537:880.968    -- Start of determining dirty areas in flash cache
T7E7C 537:881.034    -- End of determining dirty areas
T7E7C 537:881.043    -- Start of preparing flash programming
T7E7C 537:881.052    -- Calculating RAM usage
T7E7C 537:881.068    -- RAM usage = 2852 Bytes
T7E7C 537:881.077    -- Preserving CPU registers
T7E7C 537:881.098    -- Preparing memory
T7E7C 537:881.107    -- Preparing target
T7E7C 537:881.116    -- Preserving target RAM temporarily used for programming
T7E7C 537:894.678    -- Downloading RAMCode
T7E7C 537:909.293    -- Preparing RAMCode
T7E7C 537:913.134    -- Checking target RAM
T7E7C 537:919.763    -- End of preparing flash programming
T7E7C 537:919.939   Looking for J-Link GUI Server exe at: C:\Program Files (x86)\Atmel\Studio\7.0\atbackend\JLinkGUIServer.exe
T7E7C 537:920.019   Looking for J-Link GUI Server exe at: C:\Program Files\SEGGER\JLink\JLinkGUIServer.exe
T7E7C 537:920.059   Forking J-Link GUI Server: C:\Program Files\SEGGER\JLink\JLinkGUIServer.exe
T7E7C 537:939.370   J-Link GUI Server info: "J-Link GUI server V7.50a "
T7E7C 537:949.390    -- CPU speed could not be measured.
T7E7C 537:949.408    -- Start of comparing flash
T7E7C 537:949.416    -- CRC check was estimated as fastest method
T7E7C 537:978.007    -- Comparing range 0x0000 - 0x36FF (55 Sectors, 13 KiB), using multi-block CRC calculation
T7E7C 538:013.001    -- CRC does not match for sectors 0-54
T7E7C 538:013.024    -- End of comparing flash
T7E7C 538:013.033    -- Start of erasing sectors
T7E7C 538:013.042    -- End of erasing sectors
T7E7C 538:013.055    -- Start of flash programming
T7E7C 538:013.066    -- Programming range 0x00000000 - 0x000036FF ( 55 Sectors, 13 KB)
T7E7C 538:198.492    -- End of flash programming
T7E7C 538:198.586    -- 0x0000 - 0x36FF ( 55 Sectors, 13 KoB)
T7E7C 538:198.596    -- Start of restoring
T7E7C 538:198.604    -- Restoring RAMCode
T7E7C 538:211.189    -- Restoring target memory
T7E7C 538:225.823    -- Restore target
T7E7C 538:225.836    -- Restore memory
T7E7C 538:225.843    -- Restoring CPU registers
T7E7C 538:225.860    -- End of restoring
T7E7C 538:225.872    -- Bank 0 @ 0x00000000: 1 range affected (14080 bytes)
T7E7C 538:225.881    -- Total: 0.344s (Prepare: 0.068s, Compare: 0.063s, Erase: 0.000s, Program & Verify: 0.195s, Restore: 0.017s)
T7E7C 538:225.889    -- Program & Verify speed: 70 KiB/s
T7E7C 538:229.400 - 348.981ms returns 14080 (0x3700)
T7E7C 538:229.417 JLINK_SetResetType(JLINKARM_CM3_RESET_TYPE_NORMAL)
T7E7C 538:229.423 - 0.009ms returns JLINKARM_CM3_RESET_TYPE_NORMAL
T7E7C 538:229.432 JLINK_Reset()
T7E7C 538:229.442   CPU_ReadMem(4 bytes @ 0x20000000)
T7E7C 538:229.631   CPU_WriteMem(4 bytes @ 0x20000000)
T7E7C 538:229.835   ResetTarget() start
T7E7C 538:229.854    J-Link Script File: Executing ResetTarget()
T7E7C 538:230.058   CPU_ReadMem(4 bytes @ 0xE000EDFC)
T7E7C 538:230.277   CPU_WriteMem(4 bytes @ 0xE000EDFC)
T7E7C 538:230.467   CPU_WriteMem(4 bytes @ 0xE000ED0C)
T7E7C 538:232.250   CPU_ReadMem(4 bytes @ 0xE000EDF0)
T7E7C 538:232.451   CPU_ReadMem(4 bytes @ 0x41002100)
T7E7C 538:232.657   CPU_WriteMem(4 bytes @ 0x41002100)
T7E7C 538:232.875   CPU_ReadMem(4 bytes @ 0x41002100)
T7E7C 538:233.066   CPU_WriteMem(4 bytes @ 0xE000EDFC)
T7E7C 538:233.278   ResetTarget() end
T7E7C 538:235.431   CPU_WriteMem(4 bytes @ 0xE0002000)
T7E7C 538:235.620   CPU_ReadMem(4 bytes @ 0xE000EDFC)
T7E7C 538:235.794   CPU_ReadMem(4 bytes @ 0xE0001000)
T7E7C 538:235.963   CPU_WriteMem(4 bytes @ 0xE0001000)
T7E7C 538:236.154 - 6.729ms
T6E44 538:273.124 JLINK_IsHalted()
T6E44 538:273.145 - 0.024ms returns TRUE
T6BCC 538:339.620 JLINK_Halt()
T6BCC 538:339.638 - 0.021ms returns 0x00
T6BCC 538:339.656 JLINK_ReadReg(R15 (PC))
T6BCC 538:339.666 - 0.013ms returns 0x00002F54
T6BCC 538:339.675 JLINK_ReadReg(R13 (SP))
T6BCC 538:339.681 - 0.008ms returns 0x200024B0
T6BCC 538:342.241 JLINK_ReadMemHW(0x00002F54, 0x0004 Bytes, ...)
T6BCC 538:342.272   CPU_ReadMem(4 bytes @ 0x00002F54)
T6BCC 538:342.478   Data:  F8 B5 2A 4A
T6BCC 538:342.491 - 0.252ms returns 0
T6BCC 538:342.585 JLINK_ReadReg(R0)
T6BCC 538:342.595 - 0.013ms returns 0x40001000
T6BCC 538:342.603 JLINK_ReadReg(R1)
T6BCC 538:342.609 - 0.008ms returns 0x00000000
T6BCC 538:342.617 JLINK_ReadReg(R2)
T6BCC 538:342.622 - 0.008ms returns 0x00000000
T6BCC 538:342.629 JLINK_ReadReg(R3)
T6BCC 538:342.635 - 0.008ms returns 0x00003600
T6BCC 538:342.642 JLINK_ReadReg(R4)
T6BCC 538:342.648 - 0.008ms returns 0x20000694
T6BCC 538:342.655 JLINK_ReadReg(R5)
T6BCC 538:342.661 - 0.008ms returns 0x200006B4
T6BCC 538:342.668 JLINK_ReadReg(R6)
T6BCC 538:342.674 - 0.008ms returns 0x200006B4
T6BCC 538:342.681 JLINK_ReadReg(R7)
T6BCC 538:342.686 - 0.008ms returns 0x41002000
T6BCC 538:342.694 JLINK_ReadReg(R8)
T6BCC 538:342.699 - 0.008ms returns 0x200000DA
T6BCC 538:342.706 JLINK_ReadReg(R9)
T6BCC 538:342.712 - 0.008ms returns 0x0000000F
T6BCC 538:342.719 JLINK_ReadReg(R10)
T6BCC 538:342.725 - 0.008ms returns 0x41002000
T6BCC 538:342.732 JLINK_ReadReg(R11)
T6BCC 538:342.738 - 0.008ms returns 0x200000DA
T6BCC 538:342.745 JLINK_ReadReg(R12)
T6BCC 538:342.750 - 0.008ms returns 0x20000618
T6BCC 538:342.757 JLINK_ReadReg(R13 (SP))
T6BCC 538:342.763 - 0.008ms returns 0x200024B0
T6BCC 538:342.770 JLINK_ReadReg(R14)
T6BCC 538:342.776 - 0.008ms returns 0x20000341
T6BCC 538:342.783 JLINK_ReadReg(R15 (PC))
T6BCC 538:342.789 - 0.008ms returns 0x00002F54
T6BCC 538:342.802 JLINK_ReadReg(XPSR)
T6BCC 538:342.807 - 0.008ms returns 0x21000000
T6BCC 538:342.815 JLINK_ReadReg(MSP)
T6BCC 538:342.820 - 0.008ms returns 0x200024B0
T6BCC 538:342.828 JLINK_ReadReg(PSP)
T6BCC 538:342.834 - 0.008ms returns 0xFFFBFBFC
T6BCC 538:342.841 JLINK_ReadReg(PRIMASK)
T6BCC 538:342.849 - 0.010ms returns 0x00000000
T6BCC 538:342.858 JLINK_ReadReg(BASEPRI)
T6BCC 538:342.870 - 0.019ms returns 0x00000000
T6BCC 538:342.883 JLINK_ReadReg(FAULTMASK)
T6BCC 538:342.891 - 0.011ms returns 0x00000000
T6BCC 538:342.900 JLINK_ReadReg(CONTROL)
T6BCC 538:342.907 - 0.010ms returns 0x00000000
T6BCC 538:343.004 JLINK_ReadMemHW(0x00002F54, 0x0002 Bytes, ...)
T6BCC 538:343.017   CPU_ReadMem(2 bytes @ 0x00002F54)
T6BCC 538:343.209   Data:  F8 B5
T6BCC 538:343.217 - 0.216ms returns 0
T6BCC 538:379.771 JLINK_ReadReg(R0)
T6BCC 538:379.793 - 0.025ms returns 0x40001000
T6BCC 538:379.803 JLINK_ReadReg(R1)
T6BCC 538:379.810 - 0.009ms returns 0x00000000
T6BCC 538:379.818 JLINK_ReadReg(R2)
T6BCC 538:379.824 - 0.009ms returns 0x00000000
T6BCC 538:379.832 JLINK_ReadReg(R3)
T6BCC 538:379.838 - 0.009ms returns 0x00003600
T6BCC 538:379.846 JLINK_ReadReg(R4)
T6BCC 538:379.852 - 0.009ms returns 0x20000694
T6BCC 538:379.860 JLINK_ReadReg(R5)
T6BCC 538:379.867 - 0.008ms returns 0x200006B4
T6BCC 538:379.874 JLINK_ReadReg(R6)
T6BCC 538:379.881 - 0.009ms returns 0x200006B4
T6BCC 538:379.889 JLINK_ReadReg(R7)
T6BCC 538:379.895 - 0.008ms returns 0x41002000
T6BCC 538:379.902 JLINK_ReadReg(R8)
T6BCC 538:379.909 - 0.009ms returns 0x200000DA
T6BCC 538:379.917 JLINK_ReadReg(R9)
T6BCC 538:379.923 - 0.009ms returns 0x0000000F
T6BCC 538:379.931 JLINK_ReadReg(R10)
T6BCC 538:379.937 - 0.009ms returns 0x41002000
T6BCC 538:379.945 JLINK_ReadReg(R11)
T6BCC 538:379.951 - 0.009ms returns 0x200000DA
T6BCC 538:379.959 JLINK_ReadReg(R12)
T6BCC 538:379.965 - 0.009ms returns 0x20000618
T6BCC 538:379.973 JLINK_ReadReg(R13 (SP))
T6BCC 538:379.979 - 0.009ms returns 0x200024B0
T6BCC 538:379.987 JLINK_ReadReg(R14)
T6BCC 538:379.993 - 0.009ms returns 0x20000341
T6BCC 538:380.001 JLINK_ReadReg(R15 (PC))
T6BCC 538:380.007 - 0.009ms returns 0x00002F54
T6BCC 538:380.022 JLINK_ReadReg(XPSR)
T6BCC 538:380.028 - 0.009ms returns 0x21000000
T6BCC 538:380.036 JLINK_ReadReg(MSP)
T6BCC 538:380.042 - 0.008ms returns 0x200024B0
T6BCC 538:380.050 JLINK_ReadReg(PSP)
T6BCC 538:380.056 - 0.009ms returns 0xFFFBFBFC
T6BCC 538:380.064 JLINK_ReadReg(PRIMASK)
T6BCC 538:380.070 - 0.008ms returns 0x00000000
T6BCC 538:380.078 JLINK_ReadReg(BASEPRI)
T6BCC 538:380.084 - 0.009ms returns 0x00000000
T6BCC 538:380.092 JLINK_ReadReg(FAULTMASK)
T6BCC 538:380.098 - 0.009ms returns 0x00000000
T6BCC 538:380.106 JLINK_ReadReg(CONTROL)
T6BCC 538:380.112 - 0.009ms returns 0x00000000
T6BCC 538:388.280 JLINK_ReadMemHW(0x00002F54, 0x0004 Bytes, ...)
T6BCC 538:388.297   CPU_ReadMem(4 bytes @ 0x00002F54)
T6BCC 538:388.494   Data:  F8 B5 2A 4A
T6BCC 538:388.503 - 0.225ms returns 0
T6BCC 538:412.523 JLINK_SetResetType(JLINKARM_CM3_RESET_TYPE_NORMAL)
T6BCC 538:412.536 - 0.015ms returns JLINKARM_CM3_RESET_TYPE_NORMAL
T6BCC 538:412.544 JLINK_Reset()
T6BCC 538:412.560   ResetTarget() start
T6BCC 538:412.568    J-Link Script File: Executing ResetTarget()
T6BCC 538:412.578   CPU_ReadMem(4 bytes @ 0xE000EDFC)
T6BCC 538:412.796   CPU_WriteMem(4 bytes @ 0xE000EDFC)
T6BCC 538:413.004   CPU_WriteMem(4 bytes @ 0xE000ED0C)
T6BCC 538:414.224   CPU_ReadMem(4 bytes @ 0xE000EDF0)
T6BCC 538:414.405   CPU_ReadMem(4 bytes @ 0x41002100)
T6BCC 538:414.585   CPU_WriteMem(4 bytes @ 0x41002100)
T6BCC 538:414.770   CPU_ReadMem(4 bytes @ 0x41002100)
T6BCC 538:414.946   CPU_WriteMem(4 bytes @ 0xE000EDFC)
T6BCC 538:415.131   ResetTarget() end
T6BCC 538:417.273   CPU_WriteMem(4 bytes @ 0xE0002000)
T6BCC 538:417.464   CPU_ReadMem(4 bytes @ 0xE000EDFC)
T6BCC 538:417.645   CPU_ReadMem(4 bytes @ 0xE0001000)
T6BCC 538:417.836   CPU_WriteMem(4 bytes @ 0xE0001000)
T6BCC 538:418.061 - 5.525ms
T6E44 538:418.084 JLINK_IsHalted()
T6E44 538:418.095 - 0.014ms returns TRUE
T6E44 538:418.104 JLINK_GetMOEs(...)
T6E44 538:418.113   CPU_ReadMem(4 bytes @ 0xE000ED30)
T6E44 538:418.311 - 0.216ms returns 0x01
T6E44 538:418.328 JLINK_ReadReg(R15 (PC))
T6E44 538:418.337 - 0.011ms returns 0x00002F54
T6BCC 538:427.170 JLINK_ReadReg(R15 (PC))
T6BCC 538:427.185 - 0.018ms returns 0x00002F54
T6BCC 538:427.196 JLINK_ReadReg(R13 (SP))
T6BCC 538:427.203 - 0.076ms returns 0x200024B0
T6BCC 538:427.412 JLINK_ReadMemHW(0x00002F54, 0x0004 Bytes, ...)
T6BCC 538:427.427   CPU_ReadMem(4 bytes @ 0x00002F54)
T6BCC 538:427.622   Data:  F8 B5 2A 4A
T6BCC 538:427.630 - 0.220ms returns 0
T6BCC 538:476.506 JLINK_ReadMemHW(0x00003038, 0x0001 Bytes, ...)
T6BCC 538:476.528   CPU_ReadMem(1 bytes @ 0x00003038)
T6BCC 538:476.746   Data:  F8
T6BCC 538:476.756 - 0.252ms returns 0
T6BCC 538:507.369 JLINK_ReadReg(R15 (PC))
T6BCC 538:507.398 - 0.032ms returns 0x00002F54
T6BCC 538:507.498 JLINK_GetNumBPUnits(Type = 0xFFFFFF02)
T6BCC 538:507.505 - 0.010ms returns 0x04
T6BCC 538:507.512 JLINK_SetBPEx(Addr = 0x00003038, Type = 0xFFFFFFF2)
T6BCC 538:507.521 - 0.011ms returns 0x00000001
T6BCC 538:507.528 JLINK_GetBPInfo(BPHandle = 1)
T6BCC 538:507.533 - 0.008ms returns 0x0
T6BCC 538:507.606 JLINK_Go()
T6BCC 538:507.624   CPU_WriteMem(4 bytes @ 0xE0002000)
T6BCC 538:507.863   CPU_ReadMem(4 bytes @ 0xE0001000)
T6BCC 538:508.078   CPU_WriteMem(4 bytes @ 0xE000ED30)
T6BCC 538:508.297   CPU_WriteMem(4 bytes @ 0xE0001000)
T6BCC 538:508.315   CPU_WriteMem(4 bytes @ 0xE0002008)
T6BCC 538:508.323   CPU_WriteMem(4 bytes @ 0xE000200C)
T6BCC 538:508.332   CPU_WriteMem(4 bytes @ 0xE0002010)
T6BCC 538:508.341   CPU_WriteMem(4 bytes @ 0xE0002014)
T6BCC 538:509.060   CPU_WriteMem(4 bytes @ 0xE0001004)
T6BCC 538:509.629 - 2.030ms
T6E44 538:509.652 JLINK_IsHalted()
T6E44 538:509.866   CPU_ReadMem(4 bytes @ 0x41002100)
T6E44 538:510.055 - 0.407ms returns FALSE
T6E44 538:529.182 JLINK_IsHalted()
T6E44 538:531.387 - 2.212ms returns TRUE
T6E44 538:531.402 JLINK_GetMOEs(...)
T6E44 538:531.411   CPU_ReadMem(4 bytes @ 0xE000ED30)
T6E44 538:531.615 - 0.217ms returns 0x01
T6E44 538:531.625 JLINK_ReadReg(R15 (PC))
T6E44 538:531.633 - 0.011ms returns 0x00003038
T6BCC 538:539.233 JLINK_ReadReg(R15 (PC))
T6BCC 538:539.262 - 0.033ms returns 0x00003038
T6BCC 538:539.274 JLINK_ReadReg(R13 (SP))
T6BCC 538:539.281 - 0.010ms returns 0x20002498
T6BCC 538:539.529 JLINK_ReadMemHW(0x00003038, 0x0004 Bytes, ...)
T6BCC 538:539.549   CPU_ReadMem(4 bytes @ 0x00003038)
T6BCC 538:539.752   Data:  F8 B5 DE 46
T6BCC 538:539.764 - 0.238ms returns 0
T7E7C 538:671.990 JLINK_ReadMemHW(0x00000000, 0x0708 Bytes, ...)
T7E7C 538:672.018   CPU_ReadMem(1800 bytes @ 0x00000000)
T7E7C 538:680.663   Data:  B0 24 00 20 55 2F 00 00 51 2F 00 00 51 2F 00 00 ...
T7E7C 538:680.682 - 8.695ms returns 0
T7E7C 538:731.210 JLINK_ReadMemHW(0x00000708, 0x0140 Bytes, ...)
T7E7C 538:731.239   CPU_ReadMem(320 bytes @ 0x00000708)
T7E7C 538:732.972   Data:  70 B5 12 4B 1B 78 00 2B 11 D0 11 4B 1B 68 1B 68 ...
T7E7C 538:732.983 - 1.776ms returns 0
T6E44 538:733.001 JLINK_IsHalted()
T6E44 538:733.021 - 0.023ms returns TRUE
T7E7C 538:741.845 JLINK_ReadMemHW(0x00000848, 0x01DD Bytes, ...)
T7E7C 538:741.867   CPU_ReadMem(477 bytes @ 0x00000848)
T7E7C 538:744.338   Data:  92 4B 98 47 F6 E0 8E 4B 5A 88 13 0A 02 2B 23 D0 ...
T7E7C 538:744.349 - 2.507ms returns 0
T6E44 538:932.279 JLINK_IsHalted()
T6E44 538:932.315 - 0.039ms returns TRUE
T6BCC 538:969.513 JLINK_ReadMemHW(0x00003038, 0x0001 Bytes, ...)
T6BCC 538:969.549   CPU_ReadMem(1 bytes @ 0x00003038)
T6BCC 538:969.768   Data:  F8
T6BCC 538:969.786 - 0.275ms returns 0
T6E44 539:132.319 JLINK_IsHalted()
T6E44 539:132.556 - 0.241ms returns TRUE
T6E44 539:332.361 JLINK_IsHalted()
T6E44 539:332.392 - 0.033ms returns TRUE
T6E44 539:534.408 JLINK_IsHalted()
T6E44 539:534.435 - 0.029ms returns TRUE
T6E44 539:734.453 JLINK_IsHalted()
T6E44 539:734.677 - 0.228ms returns TRUE
T6BCC 539:878.651 JLINK_WriteU32_64(0xE000EDFC, 0x01000000)
T6BCC 539:878.669   Debug reg: DEMCR
T6BCC 539:878.887   CPU_WriteMem(4 bytes @ 0xE000EDFC)
T6BCC 539:879.101 - 0.457ms returns 0 (0x00000000)
T6BCC 539:879.114 JLINK_ReadMem(0xE0001000, 0x4 Bytes, ...)
T6BCC 539:879.125   CPU_ReadMem(4 bytes @ 0xE0001000)
T6BCC 539:879.332   Data:  00 00 00 20
T6BCC 539:879.341   Debug reg: DWT_CTRL
T6BCC 539:879.349 - 0.237ms returns 0
T6BCC 539:879.356 JLINK_WriteU32_64(0xE0001000, 0x20000001)
T6BCC 539:879.365   Debug reg: DWT_CTRL
T6BCC 539:879.379 - 0.026ms returns 0 (0x00000000)
T6BCC 539:879.388 JLINK_WriteU32_64(0xE0001028, 0x00000100)
T6BCC 539:879.394   Debug reg: DWT_FUNC[0]
T6BCC 539:879.403 - 0.018ms returns 0 (0x00000000)
T6BCC 539:879.410 JLINK_ReadMem(0xE0001028, 0x4 Bytes, ...)
T6BCC 539:879.416   CPU_WriteMem(4 bytes @ 0xE0001028)
T6BCC 539:879.624   CPU_ReadMem(4 bytes @ 0xE0001028)
T6BCC 539:879.833   Data:  00 00 00 00
T6BCC 539:879.842   Debug reg: DWT_FUNC[0]
T6BCC 539:879.850 - 0.442ms returns 0
T6BCC 539:879.860 JLINK_WriteU32_64(0xE0001024, 0x0000001F)
T6BCC 539:879.866   Debug reg: DWT_MASK[0]
T6BCC 539:879.883 - 0.025ms returns 0 (0x00000000)
T6BCC 539:879.890 JLINK_ReadMem(0xE0001024, 0x4 Bytes, ...)
T6BCC 539:879.898   CPU_WriteMem(4 bytes @ 0xE0001024)
T6BCC 539:880.109   CPU_ReadMem(4 bytes @ 0xE0001024)
T6BCC 539:880.287   Data:  1F 00 00 00
T6BCC 539:880.296   Debug reg: DWT_MASK[0]
T6BCC 539:880.303 - 0.415ms returns 0
T6BCC 539:880.314 JLINK_WriteU32_64(0xE0001038, 0x00000100)
T6BCC 539:880.319   Debug reg: DWT_FUNC[1]
T6BCC 539:880.330 - 0.019ms returns 0 (0x00000000)
T6BCC 539:880.337 JLINK_ReadMem(0xE0001038, 0x4 Bytes, ...)
T6BCC 539:880.345   CPU_WriteMem(4 bytes @ 0xE0001038)
T6BCC 539:880.530   CPU_ReadMem(4 bytes @ 0xE0001038)
T6BCC 539:880.707   Data:  00 00 00 00
T6BCC 539:880.716   Debug reg: DWT_FUNC[1]
T6BCC 539:880.723 - 0.388ms returns 0
T6BCC 539:880.730 JLINK_WriteU32_64(0xE0001034, 0x0000001F)
T6BCC 539:880.735   Debug reg: DWT_MASK[1]
T6BCC 539:880.744 - 0.017ms returns 0 (0x00000000)
T6BCC 539:880.751 JLINK_ReadMem(0xE0001034, 0x4 Bytes, ...)
T6BCC 539:880.757   CPU_WriteMem(4 bytes @ 0xE0001034)
T6BCC 539:880.948   CPU_ReadMem(4 bytes @ 0xE0001034)
T6BCC 539:881.115   Data:  1F 00 00 00
T6BCC 539:881.123   Debug reg: DWT_MASK[1]
T6BCC 539:881.130 - 0.382ms returns 0
T6BCC 539:881.143 JLINK_WriteU32_64(0xE0001020, 0x00000000)
T6BCC 539:881.149   Debug reg: DWT_COMP[0]
T6BCC 539:881.158 - 0.017ms returns 0 (0x00000000)
T6BCC 539:881.165 JLINK_WriteU32_64(0xE0001024, 0x00000000)
T6BCC 539:881.170   Debug reg: DWT_MASK[0]
T6BCC 539:881.178 - 0.016ms returns 0 (0x00000000)
T6BCC 539:881.185 JLINK_WriteU32_64(0xE0001028, 0x00000000)
T6BCC 539:881.190   Debug reg: DWT_FUNC[0]
T6BCC 539:881.198 - 0.016ms returns 0 (0x00000000)
T6BCC 539:881.205 JLINK_WriteU32_64(0xE0001030, 0x00000000)
T6BCC 539:881.210   Debug reg: DWT_COMP[1]
T6BCC 539:881.219 - 0.016ms returns 0 (0x00000000)
T6BCC 539:881.225 JLINK_WriteU32_64(0xE0001034, 0x00000000)
T6BCC 539:881.230   Debug reg: DWT_MASK[1]
T6BCC 539:881.239 - 0.016ms returns 0 (0x00000000)
T6BCC 539:881.245 JLINK_WriteU32_64(0xE0001038, 0x00000000)
T6BCC 539:881.250   Debug reg: DWT_FUNC[1]
T6BCC 539:881.259 - 0.016ms returns 0 (0x00000000)
T6BCC 539:881.267 JLINK_GetBPInfo(BPHandle = 1)
T6BCC 539:881.273 - 0.007ms returns 0x0
T6BCC 539:881.279 JLINK_ClrBPEx(BPHandle = 0x00000001)
T6BCC 539:881.285 - 0.008ms returns 0x00
T6BCC 539:881.308 JLINK_ReadReg(R15 (PC))
T6BCC 539:881.315 - 0.009ms returns 0x00003038
T6BCC 539:881.363 JLINK_Go()
T6BCC 539:881.376   CPU_WriteMem(4 bytes @ 0xE0001000)
T6BCC 539:881.581   CPU_ReadMem(4 bytes @ 0xE0001000)
T6BCC 539:881.759   CPU_WriteMem(4 bytes @ 0xE000ED30)
T6BCC 539:881.948   CPU_WriteMem(4 bytes @ 0xE0001000)
T6BCC 539:881.958   CPU_WriteMem(4 bytes @ 0xE0001020)
T6BCC 539:881.965   CPU_WriteMem(4 bytes @ 0xE0001030)
T6BCC 539:881.973   CPU_WriteMem(4 bytes @ 0xE0001024)
T6BCC 539:881.980   CPU_WriteMem(4 bytes @ 0xE0001034)
T6BCC 539:881.988   CPU_WriteMem(4 bytes @ 0xE0001028)
T6BCC 539:881.995   CPU_WriteMem(4 bytes @ 0xE0001038)
T6BCC 539:882.003   CPU_WriteMem(4 bytes @ 0xE0002008)
T6BCC 539:883.366 - 2.011ms
T6E44 539:883.394 JLINK_IsHalted()
T6E44 539:883.612   CPU_ReadMem(4 bytes @ 0x41002100)
T6E44 539:883.800 - 0.409ms returns FALSE
T6E44 539:924.491 JLINK_IsHalted()
T6E44 539:924.692   CPU_ReadMem(4 bytes @ 0x41002100)
T6E44 539:924.878 - 0.391ms returns FALSE
T6E44 540:084.533 JLINK_IsHalted()
T6E44 540:084.764   CPU_ReadMem(4 bytes @ 0x41002100)
T6E44 540:084.967 - 0.441ms returns FALSE
T6E44 540:284.577 JLINK_IsHalted()
T6E44 540:284.804   CPU_ReadMem(4 bytes @ 0x41002100)
T6E44 540:285.006 - 0.447ms returns FALSE
T6E44 540:484.623 JLINK_IsHalted()
T6E44 540:484.851   CPU_ReadMem(4 bytes @ 0x41002100)
T6E44 540:485.058 - 0.438ms returns FALSE
T6E44 540:684.668 JLINK_IsHalted()
T6E44 540:684.887   CPU_ReadMem(4 bytes @ 0x41002100)
T6E44 540:685.073 - 0.410ms returns FALSE
T6E44 540:884.720 JLINK_IsHalted()
T6E44 540:884.950   CPU_ReadMem(4 bytes @ 0x41002100)
T6E44 540:885.154 - 0.442ms returns FALSE
T6E44 541:084.759 JLINK_IsHalted()
T6E44 541:084.980   CPU_ReadMem(4 bytes @ 0x41002100)
T6E44 541:085.171 - 0.416ms returns FALSE
T6E44 541:284.801 JLINK_IsHalted()
T6E44 541:285.018   CPU_ReadMem(4 bytes @ 0x41002100)
T6E44 541:285.213 - 0.416ms returns FALSE
